
T13CC 000:386 SEGGER J-Link V4.80g Log File (0000ms, 0271ms total)
T13CC 000:386 DLL Compiled: Feb 13 2014 20:50:02 (0000ms, 0271ms total)
T13CC 000:386 Logging started @ 2016-09-20 15:16 (0000ms, 0271ms total)
T13CC 000:386 JLINK_SetWarnOutHandler(...) (0000ms, 0271ms total)
T13CC 000:386 JLINK_OpenEx(...)
Firmware: J-Link ARM V8 compiled Nov 28 2014 13:44:46
Hardware: V8.00
S/N: 17935099
Feature(s): RDI,FlashDL,FlashBP,JFlash  returns O.K. (0268ms, 0539ms total)
T13CC 000:654 JLINK_SetErrorOutHandler(...) (0000ms, 0539ms total)
T13CC 000:654 JLINK_ExecCommand("ProjectFile = "E:\GitHub\F1_ANO_IMU\F1_ANO_IMU\USER\JLinkSettings.ini"", ...)  returns 0x00 (0000ms, 0539ms total)
T13CC 000:662 JLINK_ExecCommand("Device = STM32F103VE", ...)Device "STM32F103VE" selected (512 KB flash, 64 KB RAM).  returns 0x00 (0008ms, 0548ms total)
T13CC 000:671 JLINK_ExecCommand("DisableConnectionTimeout", ...)  returns 0x01 (0000ms, 0548ms total)
T13CC 000:671 JLINK_GetHardwareVersion()  returns 0x13880 (0000ms, 0548ms total)
T13CC 000:671 JLINK_GetDLLVersion()  returns 48007 (0000ms, 0548ms total)
T13CC 000:671 JLINK_GetFirmwareString(...) (0000ms, 0548ms total)
T13CC 000:684 JLINK_GetDLLVersion()  returns 48007 (0000ms, 0548ms total)
T13CC 000:684 JLINK_GetCompileDateTime() (0000ms, 0548ms total)
T13CC 000:687 JLINK_GetFirmwareString(...) (0000ms, 0548ms total)
T13CC 000:692 JLINK_GetHardwareVersion()  returns 0x13880 (0000ms, 0548ms total)
T13CC 000:709 JLINK_TIF_Select(JLINKARM_TIF_JTAG)  returns 0x00 (0006ms, 0554ms total)
T13CC 000:715 JLINK_SetSpeed(2000) (0001ms, 0555ms total)
T13CC 000:716 JLINK_GetIdData(...) >0x2F8 JTAG>TotalIRLen = 9, IRPrint = 0x0011 >0x30 JTAG> >0x210 JTAG> >0x40 JTAG> >0x40 JTAG> >0x40 JTAG> >0x30 JTAG> >0x40 JTAG> >0x40 JTAG> >0x40 JTAG> >0x40 JTAG> >0x40 JTAG> >0x40 JTAG> >0x40 JTAG> >0x40 JTAG> >0x2F8 JTAG>TotalIRLen = 9, IRPrint = 0x0011 >0x30 JTAG> >0x210 JTAG> >0x70 JTAG> >0x40 JTAG> >0x40 JTAG> >0x40 JTAG> >0x50 JTAG> >0x80 JTAG> >0x40 JTAG> >0x30 JTAG> >0x40 JTAG> >0x40 JTAG> >0x30 JTAG> >0x40 JTAG> >0x50 JTAG>
Found Cortex-M3 r1p1, Little endian. -- CPU_WriteMem(4 bytes @ 0xE0002000) -- CPU_ReadMem(4 bytes @ 0xE000EDF0) -- CPU_ReadMem(4 bytes @ 0xE0002000)FPUnit: 6 code (BP) slots and 2 literal slots -- CPU_ReadMem(4 bytes @ 0xE000EDFC) -- CPU_ReadMem(4 bytes @ 0xE0001000) -- CPU_WriteMem(4 bytes @ 0xE0001000) -- CPU_ReadMem(4 bytes @ 0xE00FF010)TPIU fitted. -- CPU_ReadMem(4 bytes @ 0xE00FF014) -- CPU_ReadMem(4 bytes @ 0xE00FF018) ScanLen=9 NumDevices=2 aId[0]=0x3BA00477 aIrRead[0]=0 aScanLen[0]=0
 aScanRead[0]=0 (0066ms, 0621ms total)
T13CC 000:782 JLINK_JTAG_GetDeviceID(DeviceIndex = 0)  returns 0x3BA00477 (0000ms, 0621ms total)
T13CC 000:782 JLINK_JTAG_GetDeviceInfo(DeviceIndex = 0)  returns 0x00 (0000ms, 0621ms total)
T13CC 000:782 JLINK_JTAG_GetDeviceID(DeviceIndex = 1)  returns 0x16410041 (0000ms, 0621ms total)
T13CC 000:782 JLINK_JTAG_GetDeviceInfo(DeviceIndex = 1)  returns 0x00 (0000ms, 0621ms total)
T13CC 000:782 JLINK_GetDeviceFamily()  returns 3 (0000ms, 0621ms total)
T13CC 000:786 JLINK_ReadMem (0xE00FFFF0, 0x0010 Bytes, ...) -- CPU is running -- CPU_ReadMem(16 bytes @ 0xE00FFFF0) -- Data:  0D 00 00 00 10 00 00 00 05 00 00 00 B1 00 00 00  returns 0x00 (0001ms, 0622ms total)
T13CC 000:787 JLINK_ReadMem (0xE00FFFD0, 0x0020 Bytes, ...) -- CPU is running -- CPU_ReadMem(32 bytes @ 0xE00FFFD0) -- Data:  00 00 00 00 00 00 00 00 00 00 00 00 00 00 00 00 ...  returns 0x00 (0001ms, 0623ms total)
T13CC 000:788 JLINK_ReadMem (0xE00FF000, 0x0018 Bytes, ...) -- CPU is running -- CPU_ReadMem(24 bytes @ 0xE00FF000) -- Data:  03 F0 F0 FF 03 20 F0 FF 03 30 F0 FF 03 10 F0 FF ...  returns 0x00 (0001ms, 0624ms total)
T13CC 000:789 JLINK_ReadMemU32(0xE000ED00, 0x0001 Items, ...) -- CPU is running -- CPU_ReadMem(4 bytes @ 0xE000ED00) -- Data:  31 C2 1F 41  returns 0x01 (0001ms, 0625ms total)
T13CC 000:790 JLINK_SetResetType(JLINKARM_RESET_TYPE_NORMAL)  returns JLINKARM_RESET_TYPE_NORMAL (0000ms, 0625ms total)
T13CC 000:790 JLINK_Reset() -- CPU is running -- CPU_WriteMem(4 bytes @ 0xE000EDF0) -- CPU is running -- CPU_WriteMem(4 bytes @ 0xE000EDFC) -- CPU is running -- CPU_WriteMem(4 bytes @ 0xE000ED0C) -- CPU is running -- CPU_ReadMem(4 bytes @ 0xE000EDF0) -- CPU is running -- CPU_ReadMem(4 bytes @ 0xE000EDF0) -- CPU is running -- CPU_WriteMem(4 bytes @ 0xE000EDF0) -- CPU is running -- CPU_WriteMem(4 bytes @ 0xE000EDFC) -- CPU is running -- CPU_ReadMem(4 bytes @ 0xE000EDF0) >0x80 JTAG> >0x40 JTAG> >0x30 JTAG>
 >0x40 JTAG> >0x50 JTAG> >0x40 JTAG> -- CPU_WriteMem(4 bytes @ 0xE000EDFC) -- CPU_WriteMem(4 bytes @ 0xE0001028) -- CPU_WriteMem(4 bytes @ 0xE0001038) -- CPU_WriteMem(4 bytes @ 0xE0001048) -- CPU_WriteMem(4 bytes @ 0xE0001058) -- CPU_WriteMem(4 bytes @ 0xE0002000) -- CPU_ReadMem(4 bytes @ 0xE000EDFC) -- CPU_ReadMem(4 bytes @ 0xE0001000) (0040ms, 0665ms total)
T13CC 000:830 JLINK_Halt()  returns 0x00 (0000ms, 0665ms total)
T13CC 000:830 JLINK_IsHalted()  returns TRUE (0000ms, 0665ms total)
T13CC 000:830 JLINK_ReadMemU32(0xE000EDF0, 0x0001 Items, ...) -- CPU_ReadMem(4 bytes @ 0xE000EDF0) -- Data:  03 00 03 00  returns 0x01 (0001ms, 0666ms total)
T13CC 000:831 JLINK_WriteU32(0xE000EDF0, 0xA05F0003) -- CPU_WriteMem(4 bytes @ 0xE000EDF0)  returns 0x00 (0001ms, 0667ms total)
T13CC 000:832 JLINK_WriteU32(0xE000EDFC, 0x01000000) -- CPU_WriteMem(4 bytes @ 0xE000EDFC)  returns 0x00 (0001ms, 0668ms total)
T13CC 000:846 JLINK_GetHWStatus(...)  returns 0x00 (0001ms, 0669ms total)
T13CC 000:860 JLINK_GetNumBPUnits(Type = 0xFFFFFF00)  returns 0x06 (0000ms, 0669ms total)
T13CC 000:860 JLINK_GetNumBPUnits(Type = 0xF0)  returns 0x2000 (0000ms, 0669ms total)
T13CC 000:860 JLINK_GetNumWPUnits()  returns 0x04 (0000ms, 0669ms total)
T13CC 000:871 JLINK_GetSpeed()  returns 0x7D0 (0000ms, 0669ms total)
T13CC 000:878 JLINK_ReadMemU32(0xE000E004, 0x0001 Items, ...) -- CPU_ReadMem(4 bytes @ 0xE000E004) -- Data:  01 00 00 00  returns 0x01 (0001ms, 0670ms total)
T13CC 000:879 JLINK_ReadMemU32(0xE000E004, 0x0001 Items, ...) -- CPU_ReadMem(4 bytes @ 0xE000E004) -- Data:  01 00 00 00  returns 0x01 (0001ms, 0671ms total)
T13CC 000:880 JLINK_WriteMem(0xE0001000, 0x001C Bytes, ...) -- Data:  01 00 00 00 00 00 00 00 00 00 00 00 00 00 00 00 ... -- CPU_WriteMem(28 bytes @ 0xE0001000)  returns 0x1C (0001ms, 0672ms total)
T13CC 000:881 JLINK_ReadMem (0xE0001000, 0x001C Bytes, ...) -- CPU_ReadMem(28 bytes @ 0xE0001000) -- Data:  01 00 00 40 00 00 00 00 00 00 00 00 00 00 00 00 ...  returns 0x00 (0001ms, 0673ms total)
T13CC 000:882 JLINK_Halt()  returns 0x00 (0000ms, 0673ms total)
T13CC 000:882 JLINK_IsHalted()  returns TRUE (0000ms, 0673ms total)
T13CC 000:885 JLINK_WriteMem(0x20000000, 0x0164 Bytes, ...) -- Data:  00 BE 0A E0 0D 78 2D 06 68 40 08 24 40 00 00 D3 ... -- CPU_WriteMem(356 bytes @ 0x20000000)  returns 0x164 (0003ms, 0676ms total)
T13CC 000:888 JLINK_WriteReg(R0, 0x08000000)  returns 0x00 (0000ms, 0676ms total)
T13CC 000:888 JLINK_WriteReg(R1, 0x007A1200)  returns 0x00 (0000ms, 0676ms total)
T13CC 000:888 JLINK_WriteReg(R2, 0x00000001)  returns 0x00 (0000ms, 0676ms total)
T13CC 000:888 JLINK_WriteReg(R3, 0x00000000)  returns 0x00 (0000ms, 0676ms total)
T13CC 000:888 JLINK_WriteReg(R4, 0x00000000)  returns 0x00 (0000ms, 0676ms total)
T13CC 000:888 JLINK_WriteReg(R5, 0x00000000)  returns 0x00 (0000ms, 0676ms total)
T13CC 000:889 JLINK_WriteReg(R6, 0x00000000)  returns 0x00 (0000ms, 0676ms total)
T13CC 000:889 JLINK_WriteReg(R7, 0x00000000)  returns 0x00 (0000ms, 0676ms total)
T13CC 000:889 JLINK_WriteReg(R8, 0x00000000)  returns 0x00 (0000ms, 0676ms total)
T13CC 000:889 JLINK_WriteReg(R9, 0x20000160)  returns 0x00 (0000ms, 0676ms total)
T13CC 000:889 JLINK_WriteReg(R10, 0x00000000)  returns 0x00 (0000ms, 0676ms total)
T13CC 000:889 JLINK_WriteReg(R11, 0x00000000)  returns 0x00 (0000ms, 0676ms total)
T13CC 000:889 JLINK_WriteReg(R12, 0x00000000)  returns 0x00 (0000ms, 0676ms total)
T13CC 000:889 JLINK_WriteReg(R13 (SP), 0x20000800)  returns 0x00 (0000ms, 0676ms total)
T13CC 000:889 JLINK_WriteReg(R14, 0x20000001)  returns 0x00 (0000ms, 0676ms total)
T13CC 000:889 JLINK_WriteReg(R15 (PC), 0x20000038)  returns 0x00 (0000ms, 0676ms total)
T13CC 000:889 JLINK_WriteReg(XPSR, 0x01000000)  returns 0x00 (0000ms, 0676ms total)
T13CC 000:889 JLINK_WriteReg(MSP, 0x20000800)  returns 0x00 (0000ms, 0676ms total)
T13CC 000:889 JLINK_WriteReg(PSP, 0x20000800)  returns 0x00 (0000ms, 0676ms total)
T13CC 000:889 JLINK_WriteReg(CFBP, 0x00000000)  returns 0x00 (0000ms, 0676ms total)
T13CC 000:889 JLINK_SetBPEx(Addr = 0x20000000, Type = 0xFFFFFFF2) -- CPU_ReadMem(2 bytes @ 0x20000000)  returns 0x00000001 (0000ms, 0676ms total)
T13CC 000:889 JLINK_Go() -- CPU_WriteMem(2 bytes @ 0x20000000) -- CPU_WriteMem(4 bytes @ 0xE0002008) -- CPU_WriteMem(4 bytes @ 0xE000200C) -- CPU_WriteMem(4 bytes @ 0xE0002010) -- CPU_WriteMem(4 bytes @ 0xE0002014) -- CPU_WriteMem(4 bytes @ 0xE0002018) -- CPU_WriteMem(4 bytes @ 0xE000201C) -- CPU_WriteMem(4 bytes @ 0xE0001004) (0011ms, 0687ms total)
T13CC 000:900 JLINK_IsHalted() -- CPU_ReadMem(2 bytes @ 0x20000000)  returns TRUE (0006ms, 0693ms total)
T13CC 000:906 JLINK_ReadReg(R15 (PC))  returns 0x20000000 (0000ms, 0687ms total)
T13CC 000:906 JLINK_ClrBPEx(BPHandle = 0x00000001)  returns 0x00 (0000ms, 0687ms total)
T13CC 000:906 JLINK_ReadReg(R0)  returns 0x00000000 (0000ms, 0687ms total)
T13CC 000:907 JLINK_WriteReg(R0, 0x08000000)  returns 0x00 (0000ms, 0687ms total)
T13CC 000:907 JLINK_WriteReg(R1, 0x007A1200)  returns 0x00 (0000ms, 0687ms total)
T13CC 000:907 JLINK_WriteReg(R2, 0x00000001)  returns 0x00 (0000ms, 0687ms total)
T13CC 000:907 JLINK_WriteReg(R3, 0x00000000)  returns 0x00 (0000ms, 0687ms total)
T13CC 000:907 JLINK_WriteReg(R4, 0x00000000)  returns 0x00 (0000ms, 0687ms total)
T13CC 000:907 JLINK_WriteReg(R5, 0x00000000)  returns 0x00 (0000ms, 0687ms total)
T13CC 000:907 JLINK_WriteReg(R6, 0x00000000)  returns 0x00 (0000ms, 0687ms total)
T13CC 000:907 JLINK_WriteReg(R7, 0x00000000)  returns 0x00 (0000ms, 0687ms total)
T13CC 000:907 JLINK_WriteReg(R8, 0x00000000)  returns 0x00 (0000ms, 0687ms total)
T13CC 000:907 JLINK_WriteReg(R9, 0x20000160)  returns 0x00 (0000ms, 0687ms total)
T13CC 000:907 JLINK_WriteReg(R10, 0x00000000)  returns 0x00 (0000ms, 0687ms total)
T13CC 000:907 JLINK_WriteReg(R11, 0x00000000)  returns 0x00 (0000ms, 0687ms total)
T13CC 000:907 JLINK_WriteReg(R12, 0x00000000)  returns 0x00 (0000ms, 0687ms total)
T13CC 000:907 JLINK_WriteReg(R13 (SP), 0x20000800)  returns 0x00 (0000ms, 0687ms total)
T13CC 000:907 JLINK_WriteReg(R14, 0x20000001)  returns 0x00 (0000ms, 0687ms total)
T13CC 000:907 JLINK_WriteReg(R15 (PC), 0x2000007C)  returns 0x00 (0000ms, 0687ms total)
T13CC 000:907 JLINK_WriteReg(XPSR, 0x01000000)  returns 0x00 (0000ms, 0687ms total)
T13CC 000:907 JLINK_WriteReg(MSP, 0x20000800)  returns 0x00 (0000ms, 0687ms total)
T13CC 000:907 JLINK_WriteReg(PSP, 0x20000800)  returns 0x00 (0000ms, 0687ms total)
T13CC 000:907 JLINK_WriteReg(CFBP, 0x00000000)  returns 0x00 (0000ms, 0687ms total)
T13CC 000:907 JLINK_SetBPEx(Addr = 0x20000000, Type = 0xFFFFFFF2)  returns 0x00000002 (0000ms, 0687ms total)
T13CC 000:907 JLINK_Go() (0002ms, 0689ms total)
T13CC 000:909 JLINK_IsHalted()  returns FALSE (0001ms, 0690ms total)
T13CC 000:980 JLINK_IsHalted() -- CPU_ReadMem(2 bytes @ 0x20000000)  returns TRUE (0006ms, 0695ms total)
T13CC 000:986 JLINK_ReadReg(R15 (PC))  returns 0x20000000 (0000ms, 0689ms total)
T13CC 000:986 JLINK_ClrBPEx(BPHandle = 0x00000002)  returns 0x00 (0000ms, 0689ms total)
T13CC 000:986 JLINK_ReadReg(R0)  returns 0x00000000 (0000ms, 0689ms total)
T13CC 001:037 JLINK_WriteReg(R0, 0x00000001)  returns 0x00 (0000ms, 0689ms total)
T13CC 001:037 JLINK_WriteReg(R1, 0x007A1200)  returns 0x00 (0000ms, 0689ms total)
T13CC 001:037 JLINK_WriteReg(R2, 0x00000001)  returns 0x00 (0000ms, 0689ms total)
T13CC 001:037 JLINK_WriteReg(R3, 0x00000000)  returns 0x00 (0000ms, 0689ms total)
T13CC 001:037 JLINK_WriteReg(R4, 0x00000000)  returns 0x00 (0000ms, 0689ms total)
T13CC 001:037 JLINK_WriteReg(R5, 0x00000000)  returns 0x00 (0000ms, 0689ms total)
T13CC 001:037 JLINK_WriteReg(R6, 0x00000000)  returns 0x00 (0000ms, 0689ms total)
T13CC 001:037 JLINK_WriteReg(R7, 0x00000000)  returns 0x00 (0000ms, 0689ms total)
T13CC 001:037 JLINK_WriteReg(R8, 0x00000000)  returns 0x00 (0000ms, 0689ms total)
T13CC 001:037 JLINK_WriteReg(R9, 0x20000160)  returns 0x00 (0001ms, 0690ms total)
T13CC 001:038 JLINK_WriteReg(R10, 0x00000000)  returns 0x00 (0000ms, 0690ms total)
T13CC 001:038 JLINK_WriteReg(R11, 0x00000000)  returns 0x00 (0000ms, 0690ms total)
T13CC 001:038 JLINK_WriteReg(R12, 0x00000000)  returns 0x00 (0000ms, 0690ms total)
T13CC 001:038 JLINK_WriteReg(R13 (SP), 0x20000800)  returns 0x00 (0000ms, 0690ms total)
T13CC 001:038 JLINK_WriteReg(R14, 0x20000001)  returns 0x00 (0000ms, 0690ms total)
T13CC 001:038 JLINK_WriteReg(R15 (PC), 0x2000006A)  returns 0x00 (0000ms, 0690ms total)
T13CC 001:038 JLINK_WriteReg(XPSR, 0x01000000)  returns 0x00 (0000ms, 0690ms total)
T13CC 001:038 JLINK_WriteReg(MSP, 0x20000800)  returns 0x00 (0000ms, 0690ms total)
T13CC 001:038 JLINK_WriteReg(PSP, 0x20000800)  returns 0x00 (0000ms, 0690ms total)
T13CC 001:038 JLINK_WriteReg(CFBP, 0x00000000)  returns 0x00 (0000ms, 0690ms total)
T13CC 001:038 JLINK_SetBPEx(Addr = 0x20000000, Type = 0xFFFFFFF2)  returns 0x00000003 (0000ms, 0690ms total)
T13CC 001:038 JLINK_Go() (0002ms, 0692ms total)
T13CC 001:040 JLINK_IsHalted() -- CPU_ReadMem(2 bytes @ 0x20000000)  returns TRUE (0006ms, 0698ms total)
T13CC 001:046 JLINK_ReadReg(R15 (PC))  returns 0x20000000 (0000ms, 0692ms total)
T13CC 001:046 JLINK_ClrBPEx(BPHandle = 0x00000003)  returns 0x00 (0000ms, 0692ms total)
T13CC 001:046 JLINK_ReadReg(R0)  returns 0x00000000 (0000ms, 0692ms total)
T13CC 001:052 JLINK_WriteMem(0x20000000, 0x0164 Bytes, ...) -- Data:  00 BE 0A E0 0D 78 2D 06 68 40 08 24 40 00 00 D3 ... -- CPU_WriteMem(356 bytes @ 0x20000000)  returns 0x164 (0003ms, 0695ms total)
T13CC 001:055 JLINK_WriteReg(R0, 0x08000000)  returns 0x00 (0000ms, 0695ms total)
T13CC 001:055 JLINK_WriteReg(R1, 0x007A1200)  returns 0x00 (0000ms, 0695ms total)
T13CC 001:055 JLINK_WriteReg(R2, 0x00000002)  returns 0x00 (0000ms, 0695ms total)
T13CC 001:055 JLINK_WriteReg(R3, 0x00000000)  returns 0x00 (0000ms, 0695ms total)
T13CC 001:055 JLINK_WriteReg(R4, 0x00000000)  returns 0x00 (0000ms, 0695ms total)
T13CC 001:055 JLINK_WriteReg(R5, 0x00000000)  returns 0x00 (0000ms, 0695ms total)
T13CC 001:055 JLINK_WriteReg(R6, 0x00000000)  returns 0x00 (0000ms, 0695ms total)
T13CC 001:055 JLINK_WriteReg(R7, 0x00000000)  returns 0x00 (0000ms, 0695ms total)
T13CC 001:055 JLINK_WriteReg(R8, 0x00000000)  returns 0x00 (0000ms, 0695ms total)
T13CC 001:055 JLINK_WriteReg(R9, 0x20000160)  returns 0x00 (0000ms, 0695ms total)
T13CC 001:055 JLINK_WriteReg(R10, 0x00000000)  returns 0x00 (0000ms, 0695ms total)
T13CC 001:055 JLINK_WriteReg(R11, 0x00000000)  returns 0x00 (0000ms, 0695ms total)
T13CC 001:055 JLINK_WriteReg(R12, 0x00000000)  returns 0x00 (0000ms, 0695ms total)
T13CC 001:055 JLINK_WriteReg(R13 (SP), 0x20000800)  returns 0x00 (0000ms, 0695ms total)
T13CC 001:055 JLINK_WriteReg(R14, 0x20000001)  returns 0x00 (0000ms, 0695ms total)
T13CC 001:055 JLINK_WriteReg(R15 (PC), 0x20000038)  returns 0x00 (0000ms, 0695ms total)
T13CC 001:055 JLINK_WriteReg(XPSR, 0x01000000)  returns 0x00 (0000ms, 0695ms total)
T13CC 001:055 JLINK_WriteReg(MSP, 0x20000800)  returns 0x00 (0000ms, 0695ms total)
T13CC 001:055 JLINK_WriteReg(PSP, 0x20000800)  returns 0x00 (0000ms, 0695ms total)
T13CC 001:055 JLINK_WriteReg(CFBP, 0x00000000)  returns 0x00 (0000ms, 0695ms total)
T13CC 001:055 JLINK_SetBPEx(Addr = 0x20000000, Type = 0xFFFFFFF2) -- CPU_ReadMem(2 bytes @ 0x20000000)  returns 0x00000004 (0001ms, 0696ms total)
T13CC 001:056 JLINK_Go() -- CPU_WriteMem(2 bytes @ 0x20000000) (0003ms, 0699ms total)
T13CC 001:059 JLINK_IsHalted() -- CPU_ReadMem(2 bytes @ 0x20000000)  returns TRUE (0006ms, 0705ms total)
T13CC 001:065 JLINK_ReadReg(R15 (PC))  returns 0x20000000 (0000ms, 0699ms total)
T13CC 001:065 JLINK_ClrBPEx(BPHandle = 0x00000004)  returns 0x00 (0000ms, 0699ms total)
T13CC 001:065 JLINK_ReadReg(R0)  returns 0x00000000 (0000ms, 0699ms total)
T13CC 001:065 JLINK_WriteMem(0x20000164, 0x0400 Bytes, ...) -- Data:  00 0B 00 20 F1 42 00 08 DD 02 00 08 DF 02 00 08 ... -- CPU_WriteMem(1024 bytes @ 0x20000164)  returns 0x400 (0007ms, 0706ms total)
T13CC 001:072 JLINK_WriteReg(R0, 0x08000000)  returns 0x00 (0000ms, 0706ms total)
T13CC 001:072 JLINK_WriteReg(R1, 0x00000400)  returns 0x00 (0000ms, 0706ms total)
T13CC 001:072 JLINK_WriteReg(R2, 0x20000164)  returns 0x00 (0000ms, 0706ms total)
T13CC 001:072 JLINK_WriteReg(R3, 0x00000000)  returns 0x00 (0000ms, 0706ms total)
T13CC 001:072 JLINK_WriteReg(R4, 0x00000000)  returns 0x00 (0000ms, 0706ms total)
T13CC 001:072 JLINK_WriteReg(R5, 0x00000000)  returns 0x00 (0000ms, 0706ms total)
T13CC 001:072 JLINK_WriteReg(R6, 0x00000000)  returns 0x00 (0000ms, 0706ms total)
T13CC 001:072 JLINK_WriteReg(R7, 0x00000000)  returns 0x00 (0000ms, 0706ms total)
T13CC 001:072 JLINK_WriteReg(R8, 0x00000000)  returns 0x00 (0000ms, 0706ms total)
T13CC 001:072 JLINK_WriteReg(R9, 0x20000160)  returns 0x00 (0000ms, 0706ms total)
T13CC 001:072 JLINK_WriteReg(R10, 0x00000000)  returns 0x00 (0000ms, 0706ms total)
T13CC 001:072 JLINK_WriteReg(R11, 0x00000000)  returns 0x00 (0000ms, 0706ms total)
T13CC 001:072 JLINK_WriteReg(R12, 0x00000000)  returns 0x00 (0000ms, 0706ms total)
T13CC 001:072 JLINK_WriteReg(R13 (SP), 0x20000800)  returns 0x00 (0000ms, 0706ms total)
T13CC 001:072 JLINK_WriteReg(R14, 0x20000001)  returns 0x00 (0000ms, 0706ms total)
T13CC 001:072 JLINK_WriteReg(R15 (PC), 0x200000F4)  returns 0x00 (0000ms, 0706ms total)
T13CC 001:072 JLINK_WriteReg(XPSR, 0x01000000)  returns 0x00 (0000ms, 0706ms total)
T13CC 001:072 JLINK_WriteReg(MSP, 0x20000800)  returns 0x00 (0000ms, 0706ms total)
T13CC 001:072 JLINK_WriteReg(PSP, 0x20000800)  returns 0x00 (0000ms, 0706ms total)
T13CC 001:072 JLINK_WriteReg(CFBP, 0x00000000)  returns 0x00 (0000ms, 0706ms total)
T13CC 001:072 JLINK_SetBPEx(Addr = 0x20000000, Type = 0xFFFFFFF2)  returns 0x00000005 (0000ms, 0706ms total)
T13CC 001:072 JLINK_Go() (0003ms, 0709ms total)
T13CC 001:075 JLINK_IsHalted()  returns FALSE (0001ms, 0710ms total)
T13CC 001:123 JLINK_IsHalted() -- CPU_ReadMem(2 bytes @ 0x20000000)  returns TRUE (0006ms, 0715ms total)
T13CC 001:129 JLINK_ReadReg(R15 (PC))  returns 0x20000000 (0000ms, 0709ms total)
T13CC 001:129 JLINK_ClrBPEx(BPHandle = 0x00000005)  returns 0x00 (0000ms, 0709ms total)
T13CC 001:129 JLINK_ReadReg(R0)  returns 0x00000000 (0000ms, 0709ms total)
T13CC 001:129 JLINK_WriteMem(0x20000164, 0x0400 Bytes, ...) -- Data:  64 28 05 DB 00 20 12 49 08 60 01 20 17 49 08 70 ... -- CPU_WriteMem(1024 bytes @ 0x20000164)  returns 0x400 (0006ms, 0715ms total)
T13CC 001:135 JLINK_WriteReg(R0, 0x08000400)  returns 0x00 (0000ms, 0715ms total)
T13CC 001:135 JLINK_WriteReg(R1, 0x00000400)  returns 0x00 (0001ms, 0716ms total)
T13CC 001:136 JLINK_WriteReg(R2, 0x20000164)  returns 0x00 (0000ms, 0716ms total)
T13CC 001:136 JLINK_WriteReg(R3, 0x00000000)  returns 0x00 (0000ms, 0716ms total)
T13CC 001:136 JLINK_WriteReg(R4, 0x00000000)  returns 0x00 (0000ms, 0716ms total)
T13CC 001:136 JLINK_WriteReg(R5, 0x00000000)  returns 0x00 (0000ms, 0716ms total)
T13CC 001:136 JLINK_WriteReg(R6, 0x00000000)  returns 0x00 (0000ms, 0716ms total)
T13CC 001:136 JLINK_WriteReg(R7, 0x00000000)  returns 0x00 (0000ms, 0716ms total)
T13CC 001:136 JLINK_WriteReg(R8, 0x00000000)  returns 0x00 (0000ms, 0716ms total)
T13CC 001:136 JLINK_WriteReg(R9, 0x20000160)  returns 0x00 (0000ms, 0716ms total)
T13CC 001:136 JLINK_WriteReg(R10, 0x00000000)  returns 0x00 (0000ms, 0716ms total)
T13CC 001:136 JLINK_WriteReg(R11, 0x00000000)  returns 0x00 (0000ms, 0716ms total)
T13CC 001:136 JLINK_WriteReg(R12, 0x00000000)  returns 0x00 (0000ms, 0716ms total)
T13CC 001:136 JLINK_WriteReg(R13 (SP), 0x20000800)  returns 0x00 (0000ms, 0716ms total)
T13CC 001:136 JLINK_WriteReg(R14, 0x20000001)  returns 0x00 (0000ms, 0716ms total)
T13CC 001:136 JLINK_WriteReg(R15 (PC), 0x200000F4)  returns 0x00 (0000ms, 0716ms total)
T13CC 001:136 JLINK_WriteReg(XPSR, 0x01000000)  returns 0x00 (0000ms, 0716ms total)
T13CC 001:136 JLINK_WriteReg(MSP, 0x20000800)  returns 0x00 (0000ms, 0716ms total)
T13CC 001:136 JLINK_WriteReg(PSP, 0x20000800)  returns 0x00 (0000ms, 0716ms total)
T13CC 001:136 JLINK_WriteReg(CFBP, 0x00000000)  returns 0x00 (0000ms, 0716ms total)
T13CC 001:136 JLINK_SetBPEx(Addr = 0x20000000, Type = 0xFFFFFFF2)  returns 0x00000006 (0000ms, 0716ms total)
T13CC 001:136 JLINK_Go() (0002ms, 0718ms total)
T13CC 001:138 JLINK_IsHalted()  returns FALSE (0001ms, 0719ms total)
T13CC 001:140 JLINK_IsHalted()  returns FALSE (0000ms, 0718ms total)
T13CC 001:141 JLINK_IsHalted()  returns FALSE (0000ms, 0718ms total)
T13CC 001:142 JLINK_IsHalted()  returns FALSE (0000ms, 0718ms total)
T13CC 001:143 JLINK_IsHalted()  returns FALSE (0000ms, 0718ms total)
T13CC 001:144 JLINK_IsHalted()  returns FALSE (0000ms, 0718ms total)
T13CC 001:145 JLINK_IsHalted()  returns FALSE (0000ms, 0718ms total)
T13CC 001:146 JLINK_IsHalted()  returns FALSE (0000ms, 0718ms total)
T13CC 001:147 JLINK_IsHalted()  returns FALSE (0001ms, 0719ms total)
T13CC 001:187 JLINK_IsHalted() -- CPU_ReadMem(2 bytes @ 0x20000000)  returns TRUE (0006ms, 0724ms total)
T13CC 001:193 JLINK_ReadReg(R15 (PC))  returns 0x20000000 (0000ms, 0718ms total)
T13CC 001:193 JLINK_ClrBPEx(BPHandle = 0x00000006)  returns 0x00 (0000ms, 0718ms total)
T13CC 001:193 JLINK_ReadReg(R0)  returns 0x00000000 (0000ms, 0718ms total)
T13CC 001:193 JLINK_WriteMem(0x20000164, 0x0400 Bytes, ...) -- Data:  0E FC 0E BD 00 BF 00 BF 00 BF 00 BF 00 BF 00 BF ... -- CPU_WriteMem(1024 bytes @ 0x20000164)  returns 0x400 (0007ms, 0725ms total)
T13CC 001:200 JLINK_WriteReg(R0, 0x08000800)  returns 0x00 (0000ms, 0725ms total)
T13CC 001:200 JLINK_WriteReg(R1, 0x00000400)  returns 0x00 (0000ms, 0725ms total)
T13CC 001:200 JLINK_WriteReg(R2, 0x20000164)  returns 0x00 (0000ms, 0725ms total)
T13CC 001:200 JLINK_WriteReg(R3, 0x00000000)  returns 0x00 (0000ms, 0725ms total)
T13CC 001:200 JLINK_WriteReg(R4, 0x00000000)  returns 0x00 (0000ms, 0725ms total)
T13CC 001:200 JLINK_WriteReg(R5, 0x00000000)  returns 0x00 (0000ms, 0725ms total)
T13CC 001:200 JLINK_WriteReg(R6, 0x00000000)  returns 0x00 (0000ms, 0725ms total)
T13CC 001:200 JLINK_WriteReg(R7, 0x00000000)  returns 0x00 (0000ms, 0725ms total)
T13CC 001:200 JLINK_WriteReg(R8, 0x00000000)  returns 0x00 (0000ms, 0725ms total)
T13CC 001:200 JLINK_WriteReg(R9, 0x20000160)  returns 0x00 (0000ms, 0725ms total)
T13CC 001:200 JLINK_WriteReg(R10, 0x00000000)  returns 0x00 (0000ms, 0725ms total)
T13CC 001:200 JLINK_WriteReg(R11, 0x00000000)  returns 0x00 (0000ms, 0725ms total)
T13CC 001:200 JLINK_WriteReg(R12, 0x00000000)  returns 0x00 (0000ms, 0725ms total)
T13CC 001:200 JLINK_WriteReg(R13 (SP), 0x20000800)  returns 0x00 (0000ms, 0725ms total)
T13CC 001:200 JLINK_WriteReg(R14, 0x20000001)  returns 0x00 (0000ms, 0725ms total)
T13CC 001:200 JLINK_WriteReg(R15 (PC), 0x200000F4)  returns 0x00 (0000ms, 0725ms total)
T13CC 001:200 JLINK_WriteReg(XPSR, 0x01000000)  returns 0x00 (0000ms, 0725ms total)
T13CC 001:200 JLINK_WriteReg(MSP, 0x20000800)  returns 0x00 (0000ms, 0725ms total)
T13CC 001:200 JLINK_WriteReg(PSP, 0x20000800)  returns 0x00 (0000ms, 0725ms total)
T13CC 001:200 JLINK_WriteReg(CFBP, 0x00000000)  returns 0x00 (0000ms, 0725ms total)
T13CC 001:200 JLINK_SetBPEx(Addr = 0x20000000, Type = 0xFFFFFFF2)  returns 0x00000007 (0000ms, 0725ms total)
T13CC 001:200 JLINK_Go() (0003ms, 0728ms total)
T13CC 001:203 JLINK_IsHalted()  returns FALSE (0001ms, 0729ms total)
T13CC 001:210 JLINK_IsHalted()  returns FALSE (0001ms, 0729ms total)
T13CC 001:212 JLINK_IsHalted()  returns FALSE (0001ms, 0729ms total)
T13CC 001:214 JLINK_IsHalted()  returns FALSE (0001ms, 0729ms total)
T13CC 001:216 JLINK_IsHalted()  returns FALSE (0001ms, 0729ms total)
T13CC 001:218 JLINK_IsHalted()  returns FALSE (0001ms, 0729ms total)
T13CC 001:220 JLINK_IsHalted()  returns FALSE (0001ms, 0729ms total)
T13CC 001:222 JLINK_IsHalted()  returns FALSE (0001ms, 0729ms total)
T13CC 001:224 JLINK_IsHalted()  returns FALSE (0001ms, 0729ms total)
T13CC 001:226 JLINK_IsHalted()  returns FALSE (0001ms, 0729ms total)
T13CC 001:228 JLINK_IsHalted()  returns FALSE (0001ms, 0729ms total)
T13CC 001:230 JLINK_IsHalted()  returns FALSE (0001ms, 0729ms total)
T13CC 001:232 JLINK_IsHalted()  returns FALSE (0001ms, 0729ms total)
T13CC 001:234 JLINK_IsHalted() -- CPU_ReadMem(2 bytes @ 0x20000000)  returns TRUE (0006ms, 0734ms total)
T13CC 001:240 JLINK_ReadReg(R15 (PC))  returns 0x20000000 (0000ms, 0728ms total)
T13CC 001:240 JLINK_ClrBPEx(BPHandle = 0x00000007)  returns 0x00 (0000ms, 0728ms total)
T13CC 001:240 JLINK_ReadReg(R0)  returns 0x00000000 (0000ms, 0728ms total)
T13CC 001:240 JLINK_WriteMem(0x20000164, 0x0400 Bytes, ...) -- Data:  C8 B2 FF F7 03 FF FF F7 CA FE 11 E0 48 00 00 20 ... -- CPU_WriteMem(1024 bytes @ 0x20000164)  returns 0x400 (0006ms, 0734ms total)
T13CC 001:246 JLINK_WriteReg(R0, 0x08000C00)  returns 0x00 (0000ms, 0734ms total)
T13CC 001:246 JLINK_WriteReg(R1, 0x00000400)  returns 0x00 (0000ms, 0734ms total)
T13CC 001:246 JLINK_WriteReg(R2, 0x20000164)  returns 0x00 (0000ms, 0734ms total)
T13CC 001:246 JLINK_WriteReg(R3, 0x00000000)  returns 0x00 (0000ms, 0734ms total)
T13CC 001:246 JLINK_WriteReg(R4, 0x00000000)  returns 0x00 (0000ms, 0734ms total)
T13CC 001:246 JLINK_WriteReg(R5, 0x00000000)  returns 0x00 (0000ms, 0734ms total)
T13CC 001:246 JLINK_WriteReg(R6, 0x00000000)  returns 0x00 (0000ms, 0734ms total)
T13CC 001:246 JLINK_WriteReg(R7, 0x00000000)  returns 0x00 (0000ms, 0734ms total)
T13CC 001:246 JLINK_WriteReg(R8, 0x00000000)  returns 0x00 (0000ms, 0734ms total)
T13CC 001:246 JLINK_WriteReg(R9, 0x20000160)  returns 0x00 (0000ms, 0734ms total)
T13CC 001:246 JLINK_WriteReg(R10, 0x00000000)  returns 0x00 (0000ms, 0734ms total)
T13CC 001:246 JLINK_WriteReg(R11, 0x00000000)  returns 0x00 (0001ms, 0735ms total)
T13CC 001:247 JLINK_WriteReg(R12, 0x00000000)  returns 0x00 (0000ms, 0735ms total)
T13CC 001:247 JLINK_WriteReg(R13 (SP), 0x20000800)  returns 0x00 (0000ms, 0735ms total)
T13CC 001:247 JLINK_WriteReg(R14, 0x20000001)  returns 0x00 (0000ms, 0735ms total)
T13CC 001:247 JLINK_WriteReg(R15 (PC), 0x200000F4)  returns 0x00 (0000ms, 0735ms total)
T13CC 001:247 JLINK_WriteReg(XPSR, 0x01000000)  returns 0x00 (0000ms, 0735ms total)
T13CC 001:247 JLINK_WriteReg(MSP, 0x20000800)  returns 0x00 (0000ms, 0735ms total)
T13CC 001:247 JLINK_WriteReg(PSP, 0x20000800)  returns 0x00 (0000ms, 0735ms total)
T13CC 001:247 JLINK_WriteReg(CFBP, 0x00000000)  returns 0x00 (0000ms, 0735ms total)
T13CC 001:247 JLINK_SetBPEx(Addr = 0x20000000, Type = 0xFFFFFFF2)  returns 0x00000008 (0000ms, 0735ms total)
T13CC 001:247 JLINK_Go() (0002ms, 0737ms total)
T13CC 001:249 JLINK_IsHalted()  returns FALSE (0001ms, 0738ms total)
T13CC 001:251 JLINK_IsHalted()  returns FALSE (0000ms, 0737ms total)
T13CC 001:252 JLINK_IsHalted()  returns FALSE (0000ms, 0737ms total)
T13CC 001:253 JLINK_IsHalted()  returns FALSE (0000ms, 0737ms total)
T13CC 001:254 JLINK_IsHalted()  returns FALSE (0000ms, 0737ms total)
T13CC 001:255 JLINK_IsHalted()  returns FALSE (0000ms, 0737ms total)
T13CC 001:294 JLINK_IsHalted() -- CPU_ReadMem(2 bytes @ 0x20000000)  returns TRUE (0005ms, 0742ms total)
T13CC 001:299 JLINK_ReadReg(R15 (PC))  returns 0x20000000 (0000ms, 0737ms total)
T13CC 001:299 JLINK_ClrBPEx(BPHandle = 0x00000008)  returns 0x00 (0000ms, 0737ms total)
T13CC 001:299 JLINK_ReadReg(R0)  returns 0x00000000 (0000ms, 0737ms total)
T13CC 001:300 JLINK_WriteMem(0x20000164, 0x0400 Bytes, ...) -- Data:  0A 21 90 FB F1 F0 00 B2 8E 49 48 80 93 48 80 68 ... -- CPU_WriteMem(1024 bytes @ 0x20000164)  returns 0x400 (0006ms, 0743ms total)
T13CC 001:306 JLINK_WriteReg(R0, 0x08001000)  returns 0x00 (0000ms, 0743ms total)
T13CC 001:306 JLINK_WriteReg(R1, 0x00000400)  returns 0x00 (0000ms, 0743ms total)
T13CC 001:306 JLINK_WriteReg(R2, 0x20000164)  returns 0x00 (0000ms, 0743ms total)
T13CC 001:306 JLINK_WriteReg(R3, 0x00000000)  returns 0x00 (0000ms, 0743ms total)
T13CC 001:306 JLINK_WriteReg(R4, 0x00000000)  returns 0x00 (0000ms, 0743ms total)
T13CC 001:306 JLINK_WriteReg(R5, 0x00000000)  returns 0x00 (0000ms, 0743ms total)
T13CC 001:306 JLINK_WriteReg(R6, 0x00000000)  returns 0x00 (0000ms, 0743ms total)
T13CC 001:306 JLINK_WriteReg(R7, 0x00000000)  returns 0x00 (0000ms, 0743ms total)
T13CC 001:306 JLINK_WriteReg(R8, 0x00000000)  returns 0x00 (0000ms, 0743ms total)
T13CC 001:306 JLINK_WriteReg(R9, 0x20000160)  returns 0x00 (0000ms, 0743ms total)
T13CC 001:306 JLINK_WriteReg(R10, 0x00000000)  returns 0x00 (0000ms, 0743ms total)
T13CC 001:306 JLINK_WriteReg(R11, 0x00000000)  returns 0x00 (0000ms, 0743ms total)
T13CC 001:306 JLINK_WriteReg(R12, 0x00000000)  returns 0x00 (0001ms, 0744ms total)
T13CC 001:307 JLINK_WriteReg(R13 (SP), 0x20000800)  returns 0x00 (0000ms, 0744ms total)
T13CC 001:307 JLINK_WriteReg(R14, 0x20000001)  returns 0x00 (0000ms, 0744ms total)
T13CC 001:307 JLINK_WriteReg(R15 (PC), 0x200000F4)  returns 0x00 (0000ms, 0744ms total)
T13CC 001:307 JLINK_WriteReg(XPSR, 0x01000000)  returns 0x00 (0000ms, 0744ms total)
T13CC 001:307 JLINK_WriteReg(MSP, 0x20000800)  returns 0x00 (0000ms, 0744ms total)
T13CC 001:307 JLINK_WriteReg(PSP, 0x20000800)  returns 0x00 (0000ms, 0744ms total)
T13CC 001:307 JLINK_WriteReg(CFBP, 0x00000000)  returns 0x00 (0000ms, 0744ms total)
T13CC 001:307 JLINK_SetBPEx(Addr = 0x20000000, Type = 0xFFFFFFF2)  returns 0x00000009 (0000ms, 0744ms total)
T13CC 001:307 JLINK_Go() (0002ms, 0746ms total)
T13CC 001:309 JLINK_IsHalted()  returns FALSE (0001ms, 0747ms total)
T13CC 001:313 JLINK_IsHalted()  returns FALSE (0001ms, 0747ms total)
T13CC 001:315 JLINK_IsHalted()  returns FALSE (0001ms, 0747ms total)
T13CC 001:317 JLINK_IsHalted()  returns FALSE (0001ms, 0747ms total)
T13CC 001:320 JLINK_IsHalted()  returns FALSE (0001ms, 0747ms total)
T13CC 001:322 JLINK_IsHalted()  returns FALSE (0001ms, 0747ms total)
T13CC 001:324 JLINK_IsHalted()  returns FALSE (0001ms, 0747ms total)
T13CC 001:326 JLINK_IsHalted()  returns FALSE (0001ms, 0747ms total)
T13CC 001:328 JLINK_IsHalted()  returns FALSE (0001ms, 0747ms total)
T13CC 001:330 JLINK_IsHalted()  returns FALSE (0001ms, 0747ms total)
T13CC 001:332 JLINK_IsHalted()  returns FALSE (0001ms, 0747ms total)
T13CC 001:334 JLINK_IsHalted()  returns FALSE (0001ms, 0747ms total)
T13CC 001:336 JLINK_IsHalted()  returns FALSE (0001ms, 0747ms total)
T13CC 001:338 JLINK_IsHalted()  returns FALSE (0001ms, 0747ms total)
T13CC 001:340 JLINK_IsHalted() -- CPU_ReadMem(2 bytes @ 0x20000000)  returns TRUE (0005ms, 0751ms total)
T13CC 001:345 JLINK_ReadReg(R15 (PC))  returns 0x20000000 (0001ms, 0747ms total)
T13CC 001:346 JLINK_ClrBPEx(BPHandle = 0x00000009)  returns 0x00 (0000ms, 0747ms total)
T13CC 001:346 JLINK_ReadReg(R0)  returns 0x00000000 (0000ms, 0747ms total)
T13CC 001:346 JLINK_WriteMem(0x20000164, 0x0400 Bytes, ...) -- Data:  39 E0 DD 4C 00 21 50 46 03 F0 FC FA 05 D8 29 46 ... -- CPU_WriteMem(1024 bytes @ 0x20000164)  returns 0x400 (0006ms, 0753ms total)
T13CC 001:353 JLINK_WriteReg(R0, 0x08001400)  returns 0x00 (0000ms, 0754ms total)
T13CC 001:353 JLINK_WriteReg(R1, 0x00000400)  returns 0x00 (0000ms, 0754ms total)
T13CC 001:353 JLINK_WriteReg(R2, 0x20000164)  returns 0x00 (0000ms, 0754ms total)
T13CC 001:353 JLINK_WriteReg(R3, 0x00000000)  returns 0x00 (0000ms, 0754ms total)
T13CC 001:353 JLINK_WriteReg(R4, 0x00000000)  returns 0x00 (0000ms, 0754ms total)
T13CC 001:353 JLINK_WriteReg(R5, 0x00000000)  returns 0x00 (0000ms, 0754ms total)
T13CC 001:353 JLINK_WriteReg(R6, 0x00000000)  returns 0x00 (0000ms, 0754ms total)
T13CC 001:353 JLINK_WriteReg(R7, 0x00000000)  returns 0x00 (0000ms, 0754ms total)
T13CC 001:353 JLINK_WriteReg(R8, 0x00000000)  returns 0x00 (0000ms, 0754ms total)
T13CC 001:353 JLINK_WriteReg(R9, 0x20000160)  returns 0x00 (0000ms, 0754ms total)
T13CC 001:353 JLINK_WriteReg(R10, 0x00000000)  returns 0x00 (0000ms, 0754ms total)
T13CC 001:353 JLINK_WriteReg(R11, 0x00000000)  returns 0x00 (0000ms, 0754ms total)
T13CC 001:353 JLINK_WriteReg(R12, 0x00000000)  returns 0x00 (0000ms, 0754ms total)
T13CC 001:353 JLINK_WriteReg(R13 (SP), 0x20000800)  returns 0x00 (0000ms, 0754ms total)
T13CC 001:353 JLINK_WriteReg(R14, 0x20000001)  returns 0x00 (0000ms, 0754ms total)
T13CC 001:353 JLINK_WriteReg(R15 (PC), 0x200000F4)  returns 0x00 (0000ms, 0754ms total)
T13CC 001:353 JLINK_WriteReg(XPSR, 0x01000000)  returns 0x00 (0000ms, 0754ms total)
T13CC 001:353 JLINK_WriteReg(MSP, 0x20000800)  returns 0x00 (0000ms, 0754ms total)
T13CC 001:353 JLINK_WriteReg(PSP, 0x20000800)  returns 0x00 (0000ms, 0754ms total)
T13CC 001:353 JLINK_WriteReg(CFBP, 0x00000000)  returns 0x00 (0000ms, 0754ms total)
T13CC 001:353 JLINK_SetBPEx(Addr = 0x20000000, Type = 0xFFFFFFF2)  returns 0x0000000A (0000ms, 0754ms total)
T13CC 001:353 JLINK_Go() (0002ms, 0756ms total)
T13CC 001:355 JLINK_IsHalted()  returns FALSE (0001ms, 0757ms total)
T13CC 001:357 JLINK_IsHalted()  returns FALSE (0001ms, 0757ms total)
T13CC 001:359 JLINK_IsHalted()  returns FALSE (0001ms, 0757ms total)
T13CC 001:361 JLINK_IsHalted()  returns FALSE (0001ms, 0757ms total)
T13CC 001:363 JLINK_IsHalted()  returns FALSE (0001ms, 0757ms total)
T13CC 001:365 JLINK_IsHalted()  returns FALSE (0001ms, 0757ms total)
T13CC 001:367 JLINK_IsHalted()  returns FALSE (0001ms, 0757ms total)
T13CC 001:404 JLINK_IsHalted() -- CPU_ReadMem(2 bytes @ 0x20000000)  returns TRUE (0006ms, 0762ms total)
T13CC 001:410 JLINK_ReadReg(R15 (PC))  returns 0x20000000 (0000ms, 0756ms total)
T13CC 001:410 JLINK_ClrBPEx(BPHandle = 0x0000000A)  returns 0x00 (0000ms, 0756ms total)
T13CC 001:410 JLINK_ReadReg(R0)  returns 0x00000000 (0000ms, 0756ms total)
T13CC 001:410 JLINK_WriteMem(0x20000164, 0x0400 Bytes, ...) -- Data:  04 D2 4F 49 20 46 02 F0 D9 FE 10 BD 4D 49 20 46 ... -- CPU_WriteMem(1024 bytes @ 0x20000164)  returns 0x400 (0007ms, 0763ms total)
T13CC 001:417 JLINK_WriteReg(R0, 0x08001800)  returns 0x00 (0000ms, 0763ms total)
T13CC 001:417 JLINK_WriteReg(R1, 0x00000400)  returns 0x00 (0000ms, 0763ms total)
T13CC 001:417 JLINK_WriteReg(R2, 0x20000164)  returns 0x00 (0000ms, 0763ms total)
T13CC 001:417 JLINK_WriteReg(R3, 0x00000000)  returns 0x00 (0000ms, 0763ms total)
T13CC 001:417 JLINK_WriteReg(R4, 0x00000000)  returns 0x00 (0000ms, 0763ms total)
T13CC 001:417 JLINK_WriteReg(R5, 0x00000000)  returns 0x00 (0000ms, 0763ms total)
T13CC 001:417 JLINK_WriteReg(R6, 0x00000000)  returns 0x00 (0000ms, 0763ms total)
T13CC 001:417 JLINK_WriteReg(R7, 0x00000000)  returns 0x00 (0000ms, 0763ms total)
T13CC 001:417 JLINK_WriteReg(R8, 0x00000000)  returns 0x00 (0000ms, 0763ms total)
T13CC 001:417 JLINK_WriteReg(R9, 0x20000160)  returns 0x00 (0000ms, 0763ms total)
T13CC 001:417 JLINK_WriteReg(R10, 0x00000000)  returns 0x00 (0000ms, 0763ms total)
T13CC 001:417 JLINK_WriteReg(R11, 0x00000000)  returns 0x00 (0000ms, 0763ms total)
T13CC 001:417 JLINK_WriteReg(R12, 0x00000000)  returns 0x00 (0000ms, 0763ms total)
T13CC 001:417 JLINK_WriteReg(R13 (SP), 0x20000800)  returns 0x00 (0000ms, 0763ms total)
T13CC 001:417 JLINK_WriteReg(R14, 0x20000001)  returns 0x00 (0000ms, 0763ms total)
T13CC 001:417 JLINK_WriteReg(R15 (PC), 0x200000F4)  returns 0x00 (0000ms, 0763ms total)
T13CC 001:417 JLINK_WriteReg(XPSR, 0x01000000)  returns 0x00 (0000ms, 0763ms total)
T13CC 001:417 JLINK_WriteReg(MSP, 0x20000800)  returns 0x00 (0000ms, 0763ms total)
T13CC 001:417 JLINK_WriteReg(PSP, 0x20000800)  returns 0x00 (0000ms, 0763ms total)
T13CC 001:417 JLINK_WriteReg(CFBP, 0x00000000)  returns 0x00 (0000ms, 0763ms total)
T13CC 001:417 JLINK_SetBPEx(Addr = 0x20000000, Type = 0xFFFFFFF2)  returns 0x0000000B (0000ms, 0763ms total)
T13CC 001:417 JLINK_Go() (0003ms, 0766ms total)
T13CC 001:420 JLINK_IsHalted()  returns FALSE (0001ms, 0767ms total)
T13CC 001:423 JLINK_IsHalted()  returns FALSE (0001ms, 0767ms total)
T13CC 001:425 JLINK_IsHalted()  returns FALSE (0001ms, 0767ms total)
T13CC 001:427 JLINK_IsHalted()  returns FALSE (0001ms, 0767ms total)
T13CC 001:429 JLINK_IsHalted()  returns FALSE (0001ms, 0767ms total)
T13CC 001:431 JLINK_IsHalted()  returns FALSE (0001ms, 0767ms total)
T13CC 001:433 JLINK_IsHalted()  returns FALSE (0001ms, 0767ms total)
T13CC 001:435 JLINK_IsHalted()  returns FALSE (0001ms, 0767ms total)
T13CC 001:437 JLINK_IsHalted()  returns FALSE (0001ms, 0767ms total)
T13CC 001:439 JLINK_IsHalted()  returns FALSE (0001ms, 0767ms total)
T13CC 001:441 JLINK_IsHalted()  returns FALSE (0001ms, 0767ms total)
T13CC 001:443 JLINK_IsHalted()  returns FALSE (0001ms, 0767ms total)
T13CC 001:445 JLINK_IsHalted()  returns FALSE (0001ms, 0767ms total)
T13CC 001:447 JLINK_IsHalted()  returns FALSE (0001ms, 0767ms total)
T13CC 001:449 JLINK_IsHalted()  returns FALSE (0001ms, 0767ms total)
T13CC 001:451 JLINK_IsHalted() -- CPU_ReadMem(2 bytes @ 0x20000000)  returns TRUE (0006ms, 0772ms total)
T13CC 001:457 JLINK_ReadReg(R15 (PC))  returns 0x20000000 (0000ms, 0766ms total)
T13CC 001:457 JLINK_ClrBPEx(BPHandle = 0x0000000B)  returns 0x00 (0000ms, 0766ms total)
T13CC 001:457 JLINK_ReadReg(R0)  returns 0x00000000 (0000ms, 0766ms total)
T13CC 001:457 JLINK_WriteMem(0x20000164, 0x0400 Bytes, ...) -- Data:  02 F0 14 FD 09 90 0A 99 FF F7 8C FB 62 49 0B 90 ... -- CPU_WriteMem(1024 bytes @ 0x20000164)  returns 0x400 (0007ms, 0773ms total)
T13CC 001:464 JLINK_WriteReg(R0, 0x08001C00)  returns 0x00 (0000ms, 0773ms total)
T13CC 001:464 JLINK_WriteReg(R1, 0x00000400)  returns 0x00 (0000ms, 0773ms total)
T13CC 001:464 JLINK_WriteReg(R2, 0x20000164)  returns 0x00 (0000ms, 0773ms total)
T13CC 001:464 JLINK_WriteReg(R3, 0x00000000)  returns 0x00 (0000ms, 0773ms total)
T13CC 001:464 JLINK_WriteReg(R4, 0x00000000)  returns 0x00 (0000ms, 0773ms total)
T13CC 001:464 JLINK_WriteReg(R5, 0x00000000)  returns 0x00 (0000ms, 0773ms total)
T13CC 001:464 JLINK_WriteReg(R6, 0x00000000)  returns 0x00 (0000ms, 0773ms total)
T13CC 001:464 JLINK_WriteReg(R7, 0x00000000)  returns 0x00 (0000ms, 0773ms total)
T13CC 001:464 JLINK_WriteReg(R8, 0x00000000)  returns 0x00 (0000ms, 0773ms total)
T13CC 001:464 JLINK_WriteReg(R9, 0x20000160)  returns 0x00 (0000ms, 0773ms total)
T13CC 001:464 JLINK_WriteReg(R10, 0x00000000)  returns 0x00 (0000ms, 0773ms total)
T13CC 001:464 JLINK_WriteReg(R11, 0x00000000)  returns 0x00 (0000ms, 0773ms total)
T13CC 001:464 JLINK_WriteReg(R12, 0x00000000)  returns 0x00 (0000ms, 0773ms total)
T13CC 001:464 JLINK_WriteReg(R13 (SP), 0x20000800)  returns 0x00 (0000ms, 0773ms total)
T13CC 001:464 JLINK_WriteReg(R14, 0x20000001)  returns 0x00 (0000ms, 0773ms total)
T13CC 001:464 JLINK_WriteReg(R15 (PC), 0x200000F4)  returns 0x00 (0000ms, 0773ms total)
T13CC 001:464 JLINK_WriteReg(XPSR, 0x01000000)  returns 0x00 (0000ms, 0773ms total)
T13CC 001:464 JLINK_WriteReg(MSP, 0x20000800)  returns 0x00 (0000ms, 0773ms total)
T13CC 001:464 JLINK_WriteReg(PSP, 0x20000800)  returns 0x00 (0000ms, 0773ms total)
T13CC 001:464 JLINK_WriteReg(CFBP, 0x00000000)  returns 0x00 (0000ms, 0773ms total)
T13CC 001:464 JLINK_SetBPEx(Addr = 0x20000000, Type = 0xFFFFFFF2)  returns 0x0000000C (0000ms, 0773ms total)
T13CC 001:464 JLINK_Go() (0003ms, 0776ms total)
T13CC 001:467 JLINK_IsHalted()  returns FALSE (0001ms, 0777ms total)
T13CC 001:469 JLINK_IsHalted()  returns FALSE (0001ms, 0777ms total)
T13CC 001:471 JLINK_IsHalted()  returns FALSE (0001ms, 0777ms total)
T13CC 001:473 JLINK_IsHalted()  returns FALSE (0001ms, 0777ms total)
T13CC 001:511 JLINK_IsHalted() -- CPU_ReadMem(2 bytes @ 0x20000000)  returns TRUE (0005ms, 0781ms total)
T13CC 001:516 JLINK_ReadReg(R15 (PC))  returns 0x20000000 (0000ms, 0776ms total)
T13CC 001:516 JLINK_ClrBPEx(BPHandle = 0x0000000C)  returns 0x00 (0001ms, 0777ms total)
T13CC 001:517 JLINK_ReadReg(R0)  returns 0x00000000 (0000ms, 0777ms total)
T13CC 001:517 JLINK_WriteMem(0x20000164, 0x0400 Bytes, ...) -- Data:  0B 90 71 48 80 6A 01 46 0A 90 0B 98 02 F0 84 FA ... -- CPU_WriteMem(1024 bytes @ 0x20000164)  returns 0x400 (0007ms, 0784ms total)
T13CC 001:524 JLINK_WriteReg(R0, 0x08002000)  returns 0x00 (0000ms, 0784ms total)
T13CC 001:524 JLINK_WriteReg(R1, 0x00000400)  returns 0x00 (0000ms, 0784ms total)
T13CC 001:524 JLINK_WriteReg(R2, 0x20000164)  returns 0x00 (0000ms, 0784ms total)
T13CC 001:524 JLINK_WriteReg(R3, 0x00000000)  returns 0x00 (0000ms, 0784ms total)
T13CC 001:524 JLINK_WriteReg(R4, 0x00000000)  returns 0x00 (0000ms, 0784ms total)
T13CC 001:524 JLINK_WriteReg(R5, 0x00000000)  returns 0x00 (0000ms, 0784ms total)
T13CC 001:524 JLINK_WriteReg(R6, 0x00000000)  returns 0x00 (0000ms, 0784ms total)
T13CC 001:524 JLINK_WriteReg(R7, 0x00000000)  returns 0x00 (0000ms, 0784ms total)
T13CC 001:524 JLINK_WriteReg(R8, 0x00000000)  returns 0x00 (0000ms, 0784ms total)
T13CC 001:524 JLINK_WriteReg(R9, 0x20000160)  returns 0x00 (0000ms, 0784ms total)
T13CC 001:524 JLINK_WriteReg(R10, 0x00000000)  returns 0x00 (0000ms, 0784ms total)
T13CC 001:524 JLINK_WriteReg(R11, 0x00000000)  returns 0x00 (0000ms, 0784ms total)
T13CC 001:524 JLINK_WriteReg(R12, 0x00000000)  returns 0x00 (0000ms, 0784ms total)
T13CC 001:524 JLINK_WriteReg(R13 (SP), 0x20000800)  returns 0x00 (0000ms, 0784ms total)
T13CC 001:524 JLINK_WriteReg(R14, 0x20000001)  returns 0x00 (0000ms, 0784ms total)
T13CC 001:524 JLINK_WriteReg(R15 (PC), 0x200000F4)  returns 0x00 (0000ms, 0784ms total)
T13CC 001:524 JLINK_WriteReg(XPSR, 0x01000000)  returns 0x00 (0000ms, 0784ms total)
T13CC 001:524 JLINK_WriteReg(MSP, 0x20000800)  returns 0x00 (0000ms, 0784ms total)
T13CC 001:524 JLINK_WriteReg(PSP, 0x20000800)  returns 0x00 (0000ms, 0784ms total)
T13CC 001:524 JLINK_WriteReg(CFBP, 0x00000000)  returns 0x00 (0000ms, 0784ms total)
T13CC 001:524 JLINK_SetBPEx(Addr = 0x20000000, Type = 0xFFFFFFF2)  returns 0x0000000D (0000ms, 0784ms total)
T13CC 001:524 JLINK_Go() (0003ms, 0787ms total)
T13CC 001:527 JLINK_IsHalted()  returns FALSE (0001ms, 0788ms total)
T13CC 001:530 JLINK_IsHalted()  returns FALSE (0001ms, 0788ms total)
T13CC 001:532 JLINK_IsHalted()  returns FALSE (0001ms, 0788ms total)
T13CC 001:534 JLINK_IsHalted()  returns FALSE (0001ms, 0788ms total)
T13CC 001:538 JLINK_IsHalted()  returns FALSE (0001ms, 0788ms total)
T13CC 001:540 JLINK_IsHalted()  returns FALSE (0001ms, 0788ms total)
T13CC 001:542 JLINK_IsHalted()  returns FALSE (0001ms, 0788ms total)
T13CC 001:544 JLINK_IsHalted()  returns FALSE (0001ms, 0788ms total)
T13CC 001:546 JLINK_IsHalted()  returns FALSE (0001ms, 0788ms total)
T13CC 001:548 JLINK_IsHalted()  returns FALSE (0001ms, 0788ms total)
T13CC 001:550 JLINK_IsHalted()  returns FALSE (0001ms, 0788ms total)
T13CC 001:552 JLINK_IsHalted()  returns FALSE (0001ms, 0788ms total)
T13CC 001:554 JLINK_IsHalted()  returns FALSE (0001ms, 0788ms total)
T13CC 001:556 JLINK_IsHalted()  returns FALSE (0001ms, 0788ms total)
T13CC 001:558 JLINK_IsHalted() -- CPU_ReadMem(2 bytes @ 0x20000000)  returns TRUE (0006ms, 0793ms total)
T13CC 001:564 JLINK_ReadReg(R15 (PC))  returns 0x20000000 (0000ms, 0787ms total)
T13CC 001:564 JLINK_ClrBPEx(BPHandle = 0x0000000D)  returns 0x00 (0000ms, 0787ms total)
T13CC 001:564 JLINK_ReadReg(R0)  returns 0x00000000 (0000ms, 0787ms total)
T13CC 001:564 JLINK_WriteMem(0x20000164, 0x0400 Bytes, ...) -- Data:  00 68 04 90 80 48 00 68 03 90 04 99 02 F0 DC F8 ... -- CPU_WriteMem(1024 bytes @ 0x20000164)  returns 0x400 (0007ms, 0794ms total)
T13CC 001:571 JLINK_WriteReg(R0, 0x08002400)  returns 0x00 (0000ms, 0794ms total)
T13CC 001:571 JLINK_WriteReg(R1, 0x00000400)  returns 0x00 (0000ms, 0794ms total)
T13CC 001:571 JLINK_WriteReg(R2, 0x20000164)  returns 0x00 (0000ms, 0794ms total)
T13CC 001:571 JLINK_WriteReg(R3, 0x00000000)  returns 0x00 (0000ms, 0794ms total)
T13CC 001:571 JLINK_WriteReg(R4, 0x00000000)  returns 0x00 (0000ms, 0794ms total)
T13CC 001:571 JLINK_WriteReg(R5, 0x00000000)  returns 0x00 (0000ms, 0794ms total)
T13CC 001:571 JLINK_WriteReg(R6, 0x00000000)  returns 0x00 (0000ms, 0794ms total)
T13CC 001:571 JLINK_WriteReg(R7, 0x00000000)  returns 0x00 (0000ms, 0794ms total)
T13CC 001:571 JLINK_WriteReg(R8, 0x00000000)  returns 0x00 (0000ms, 0794ms total)
T13CC 001:571 JLINK_WriteReg(R9, 0x20000160)  returns 0x00 (0000ms, 0794ms total)
T13CC 001:571 JLINK_WriteReg(R10, 0x00000000)  returns 0x00 (0000ms, 0794ms total)
T13CC 001:571 JLINK_WriteReg(R11, 0x00000000)  returns 0x00 (0000ms, 0794ms total)
T13CC 001:571 JLINK_WriteReg(R12, 0x00000000)  returns 0x00 (0000ms, 0794ms total)
T13CC 001:571 JLINK_WriteReg(R13 (SP), 0x20000800)  returns 0x00 (0000ms, 0794ms total)
T13CC 001:571 JLINK_WriteReg(R14, 0x20000001)  returns 0x00 (0000ms, 0794ms total)
T13CC 001:571 JLINK_WriteReg(R15 (PC), 0x200000F4)  returns 0x00 (0000ms, 0794ms total)
T13CC 001:571 JLINK_WriteReg(XPSR, 0x01000000)  returns 0x00 (0000ms, 0794ms total)
T13CC 001:571 JLINK_WriteReg(MSP, 0x20000800)  returns 0x00 (0001ms, 0795ms total)
T13CC 001:572 JLINK_WriteReg(PSP, 0x20000800)  returns 0x00 (0000ms, 0795ms total)
T13CC 001:572 JLINK_WriteReg(CFBP, 0x00000000)  returns 0x00 (0000ms, 0795ms total)
T13CC 001:572 JLINK_SetBPEx(Addr = 0x20000000, Type = 0xFFFFFFF2)  returns 0x0000000E (0000ms, 0795ms total)
T13CC 001:572 JLINK_Go() (0002ms, 0797ms total)
T13CC 001:574 JLINK_IsHalted()  returns FALSE (0001ms, 0798ms total)
T13CC 001:576 JLINK_IsHalted()  returns FALSE (0000ms, 0797ms total)
T13CC 001:577 JLINK_IsHalted()  returns FALSE (0000ms, 0797ms total)
T13CC 001:578 JLINK_IsHalted()  returns FALSE (0000ms, 0797ms total)
T13CC 001:579 JLINK_IsHalted()  returns FALSE (0000ms, 0797ms total)
T13CC 001:580 JLINK_IsHalted()  returns FALSE (0000ms, 0797ms total)
T13CC 001:621 JLINK_IsHalted() -- CPU_ReadMem(2 bytes @ 0x20000000)  returns TRUE (0005ms, 0802ms total)
T13CC 001:626 JLINK_ReadReg(R15 (PC))  returns 0x20000000 (0000ms, 0797ms total)
T13CC 001:626 JLINK_ClrBPEx(BPHandle = 0x0000000E)  returns 0x00 (0000ms, 0797ms total)
T13CC 001:626 JLINK_ReadReg(R0)  returns 0x00000000 (0000ms, 0797ms total)
T13CC 001:627 JLINK_WriteMem(0x20000164, 0x0400 Bytes, ...) -- Data:  9D F8 44 20 20 46 61 1C CC B2 01 A9 0A 54 9D F8 ... -- CPU_WriteMem(1024 bytes @ 0x20000164)  returns 0x400 (0006ms, 0803ms total)
T13CC 001:633 JLINK_WriteReg(R0, 0x08002800)  returns 0x00 (0000ms, 0803ms total)
T13CC 001:633 JLINK_WriteReg(R1, 0x00000400)  returns 0x00 (0000ms, 0803ms total)
T13CC 001:633 JLINK_WriteReg(R2, 0x20000164)  returns 0x00 (0000ms, 0803ms total)
T13CC 001:633 JLINK_WriteReg(R3, 0x00000000)  returns 0x00 (0000ms, 0803ms total)
T13CC 001:633 JLINK_WriteReg(R4, 0x00000000)  returns 0x00 (0000ms, 0803ms total)
T13CC 001:633 JLINK_WriteReg(R5, 0x00000000)  returns 0x00 (0000ms, 0803ms total)
T13CC 001:633 JLINK_WriteReg(R6, 0x00000000)  returns 0x00 (0000ms, 0803ms total)
T13CC 001:633 JLINK_WriteReg(R7, 0x00000000)  returns 0x00 (0000ms, 0803ms total)
T13CC 001:633 JLINK_WriteReg(R8, 0x00000000)  returns 0x00 (0000ms, 0803ms total)
T13CC 001:633 JLINK_WriteReg(R9, 0x20000160)  returns 0x00 (0000ms, 0803ms total)
T13CC 001:633 JLINK_WriteReg(R10, 0x00000000)  returns 0x00 (0000ms, 0803ms total)
T13CC 001:633 JLINK_WriteReg(R11, 0x00000000)  returns 0x00 (0000ms, 0803ms total)
T13CC 001:633 JLINK_WriteReg(R12, 0x00000000)  returns 0x00 (0000ms, 0803ms total)
T13CC 001:633 JLINK_WriteReg(R13 (SP), 0x20000800)  returns 0x00 (0000ms, 0803ms total)
T13CC 001:634 JLINK_WriteReg(R14, 0x20000001)  returns 0x00 (0000ms, 0804ms total)
T13CC 001:634 JLINK_WriteReg(R15 (PC), 0x200000F4)  returns 0x00 (0000ms, 0804ms total)
T13CC 001:634 JLINK_WriteReg(XPSR, 0x01000000)  returns 0x00 (0000ms, 0804ms total)
T13CC 001:634 JLINK_WriteReg(MSP, 0x20000800)  returns 0x00 (0000ms, 0804ms total)
T13CC 001:634 JLINK_WriteReg(PSP, 0x20000800)  returns 0x00 (0000ms, 0804ms total)
T13CC 001:634 JLINK_WriteReg(CFBP, 0x00000000)  returns 0x00 (0000ms, 0804ms total)
T13CC 001:634 JLINK_SetBPEx(Addr = 0x20000000, Type = 0xFFFFFFF2)  returns 0x0000000F (0000ms, 0804ms total)
T13CC 001:634 JLINK_Go() (0002ms, 0806ms total)
T13CC 001:636 JLINK_IsHalted()  returns FALSE (0001ms, 0807ms total)
T13CC 001:640 JLINK_IsHalted()  returns FALSE (0001ms, 0807ms total)
T13CC 001:642 JLINK_IsHalted()  returns FALSE (0001ms, 0807ms total)
T13CC 001:644 JLINK_IsHalted()  returns FALSE (0001ms, 0807ms total)
T13CC 001:646 JLINK_IsHalted()  returns FALSE (0001ms, 0807ms total)
T13CC 001:648 JLINK_IsHalted()  returns FALSE (0001ms, 0807ms total)
T13CC 001:650 JLINK_IsHalted()  returns FALSE (0001ms, 0807ms total)
T13CC 001:652 JLINK_IsHalted()  returns FALSE (0001ms, 0807ms total)
T13CC 001:654 JLINK_IsHalted()  returns FALSE (0001ms, 0807ms total)
T13CC 001:657 JLINK_IsHalted()  returns FALSE (0001ms, 0807ms total)
T13CC 001:659 JLINK_IsHalted()  returns FALSE (0001ms, 0807ms total)
T13CC 001:661 JLINK_IsHalted()  returns FALSE (0001ms, 0807ms total)
T13CC 001:663 JLINK_IsHalted()  returns FALSE (0001ms, 0807ms total)
T13CC 001:665 JLINK_IsHalted()  returns FALSE (0001ms, 0807ms total)
T13CC 001:667 JLINK_IsHalted() -- CPU_ReadMem(2 bytes @ 0x20000000)  returns TRUE (0006ms, 0812ms total)
T13CC 001:673 JLINK_ReadReg(R15 (PC))  returns 0x20000000 (0000ms, 0806ms total)
T13CC 001:673 JLINK_ClrBPEx(BPHandle = 0x0000000F)  returns 0x00 (0000ms, 0806ms total)
T13CC 001:673 JLINK_ReadReg(R0)  returns 0x00000000 (0000ms, 0806ms total)
T13CC 001:673 JLINK_WriteMem(0x20000164, 0x0400 Bytes, ...) -- Data:  0A 43 82 61 81 61 82 61 82 69 82 69 70 47 02 46 ... -- CPU_WriteMem(1024 bytes @ 0x20000164)  returns 0x400 (0007ms, 0813ms total)
T13CC 001:680 JLINK_WriteReg(R0, 0x08002C00)  returns 0x00 (0000ms, 0813ms total)
T13CC 001:680 JLINK_WriteReg(R1, 0x00000400)  returns 0x00 (0000ms, 0813ms total)
T13CC 001:680 JLINK_WriteReg(R2, 0x20000164)  returns 0x00 (0000ms, 0813ms total)
T13CC 001:680 JLINK_WriteReg(R3, 0x00000000)  returns 0x00 (0000ms, 0813ms total)
T13CC 001:680 JLINK_WriteReg(R4, 0x00000000)  returns 0x00 (0000ms, 0813ms total)
